T453C 20485:948.320   SEGGER J-Link V7.64c Log File
T453C 20485:948.367   DLL Compiled: Apr 20 2022 16:08:48
T453C 20485:948.380   Logging started @ 2023-02-06 10:01
T453C 20485:948.394 - 1855866.447ms
T453C 20485:948.410 JLINK_SetWarnOutHandler(...)
T453C 20485:948.421 - 0.017ms
T453C 20485:948.434 JLINK_OpenEx(...)
T453C 20485:949.861   Firmware: J-Link ARM-OB STM32 compiled Aug 22 2012 19:52:04
T453C 20485:950.365   Firmware: J-Link ARM-OB STM32 compiled Aug 22 2012 19:52:04
T453C 20485:953.447   Hardware: V7.00
T453C 20485:953.472   S/N: 20090929
T453C 20485:953.489   OEM: SEGGER
T453C 20485:953.505   Feature(s): RDI,FlashDL,FlashBP,JFlash,GDBFull
T453C 20485:954.997   TELNET listener socket opened on port 19021
T453C 20485:970.820   Device "CORTEX-M3" selected.
T453C 20485:972.001   WEBSRV WEBSRV_Init(): Starting webserver thread(s)
T453C 20485:972.179   WEBSRV Webserver running on local port 19080
T453C 20485:979.387 - 30.971ms returns "O.K."
T453C 20485:979.422 JLINK_GetEmuCaps()
T453C 20485:979.434 - 0.018ms returns 0x88EA5833
T453C 20485:979.453 JLINK_TIF_GetAvailable(...)
T453C 20485:979.983 - 0.537ms
T453C 20485:979.999 JLINK_SetErrorOutHandler(...)
T453C 20485:980.010 - 0.016ms
T453C 20485:980.538 JLINK_ExecCommand("ProjectFile = "H:\work\Digital_intercom\APM\20230201\APM32F103_main_÷µ∞‡ “\Project\MDK\JLinkSettings.ini"", ...). 
T453C 20485:982.734   Device "CORTEX-M3" selected.
T453C 20485:983.157 - 2.628ms returns 0x00
T453C 20485:984.686 JLINK_ExecCommand("Device = APM32F103C8", ...). 
T453C 20485:986.233   Device "CORTEX-M3" selected.
T453C 20485:986.609 - 1.909ms returns 0x00
T453C 20485:986.627 JLINK_ExecCommand("DisableConnectionTimeout", ...). 
T453C 20485:986.640 - 0.006ms returns 0x01
T453C 20485:986.656 JLINK_GetHardwareVersion()
T453C 20485:986.667 - 0.016ms returns 70000
T453C 20485:986.679 JLINK_GetDLLVersion()
T453C 20485:986.691 - 0.017ms returns 76403
T453C 20485:986.703 JLINK_GetOEMString(...)
T453C 20485:986.715 JLINK_GetFirmwareString(...)
T453C 20485:986.726 - 0.016ms
T453C 20485:994.776 JLINK_GetDLLVersion()
T453C 20485:994.799 - 0.028ms returns 76403
T453C 20485:994.815 JLINK_GetCompileDateTime()
T453C 20485:994.825 - 0.015ms
T453C 20485:996.010 JLINK_GetFirmwareString(...)
T453C 20485:996.029 - 0.024ms
T453C 20485:997.060 JLINK_GetHardwareVersion()
T453C 20485:997.076 - 0.021ms returns 70000
T453C 20485:998.042 JLINK_GetSN()
T453C 20485:998.059 - 0.022ms returns 20090929
T453C 20485:999.020 JLINK_GetOEMString(...)
T453C 20486:000.933 JLINK_TIF_Select(JLINKARM_TIF_SWD)
T453C 20486:002.062 - 1.135ms returns 0x00
T453C 20486:002.077 JLINK_HasError()
T453C 20486:002.091 JLINK_SetSpeed(5000)
T453C 20486:002.367 - 0.282ms
T453C 20486:002.381 JLINK_GetId()
T453C 20486:004.746   Found SW-DP with ID 0x2BA01477
T453C 20486:012.082   Old FW that does not support reading DPIDR via DAP jobs
T453C 20486:020.199   DPv0 detected
T453C 20486:021.213   CoreSight SoC-400 or earlier
T453C 20486:022.251   Scanning AP map to find all available APs
T453C 20486:028.442   AP[1]: Stopped AP scan as end of AP map has been reached
T453C 20486:029.442   AP[0]: AHB-AP (IDR: 0x24770011)
T453C 20486:030.438   Iterating through AP map to find AHB-AP to use
T453C 20486:042.239   AP[0]: Core found
T453C 20486:043.569   AP[0]: AHB-AP ROM base: 0xE00FF000
T453C 20486:048.903   CPUID register: 0x412FC231. Implementer code: 0x41 (ARM)
T453C 20486:049.975   Found Cortex-M3 r2p1, Little endian.
T453C 20486:152.075   -- Max. mem block: 0x00002C18
T453C 20486:152.416   CPU_ReadMem(4 bytes @ 0xE000EDF0)
T453C 20486:153.110   CPU_WriteMem(4 bytes @ 0xE000EDF0)
T453C 20486:153.843   CPU_ReadMem(4 bytes @ 0xE0002000)
T453C 20486:157.111   FPUnit: 6 code (BP) slots and 2 literal slots
T453C 20486:157.162   CPU_ReadMem(4 bytes @ 0xE000EDFC)
T453C 20486:157.863   CPU_WriteMem(4 bytes @ 0xE000EDFC)
T453C 20486:158.636   CPU_ReadMem(4 bytes @ 0xE0001000)
T453C 20486:159.322   CPU_WriteMem(4 bytes @ 0xE0001000)
T453C 20486:160.042   CPU_ReadMem(4 bytes @ 0xE000ED88)
T453C 20486:160.769   CPU_WriteMem(4 bytes @ 0xE000ED88)
T453C 20486:161.988   CPU_ReadMem(4 bytes @ 0xE000ED88)
T453C 20486:162.937   CPU_WriteMem(4 bytes @ 0xE000ED88)
T453C 20486:170.188   CoreSight components:
T453C 20486:171.741   ROMTbl[0] @ E00FF000
T453C 20486:171.772   CPU_ReadMem(64 bytes @ 0xE00FF000)
T453C 20486:173.058   CPU_ReadMem(32 bytes @ 0xE000EFE0)
T453C 20486:175.444   [0][0]: E000E000 CID B105E00D PID 000BB000 SCS
T453C 20486:175.479   CPU_ReadMem(32 bytes @ 0xE0001FE0)
T453C 20486:179.102   [0][1]: E0001000 CID B105E00D PID 003BB002 DWT
T453C 20486:179.134   CPU_ReadMem(32 bytes @ 0xE0002FE0)
T453C 20486:181.478   [0][2]: E0002000 CID B105E00D PID 002BB003 FPB
T453C 20486:181.503   CPU_ReadMem(32 bytes @ 0xE0000FE0)
T453C 20486:183.632   [0][3]: E0000000 CID B105E00D PID 003BB001 ITM
T453C 20486:183.657   CPU_ReadMem(32 bytes @ 0xE0040FE0)
T453C 20486:185.774   [0][4]: E0040000 CID B105900D PID 003BB923 TPIU-Lite
T453C 20486:186.581 - 184.206ms returns 0x2BA01477
T453C 20486:186.600 JLINK_GetDLLVersion()
T453C 20486:186.613 - 0.020ms returns 76403
T453C 20486:186.652 JLINK_CORE_GetFound()
T453C 20486:186.663 - 0.016ms returns 0x30000FF
T453C 20486:186.676 JLINK_GetDebugInfo(0x100 = JLINKARM_ROM_TABLE_ADDR_INDEX)
T453C 20486:186.687   Value=0xE00FF000
T453C 20486:186.702 - 0.031ms returns 0
T453C 20486:187.795 JLINK_GetDebugInfo(0x100 = JLINKARM_ROM_TABLE_ADDR_INDEX)
T453C 20486:187.821   Value=0xE00FF000
T453C 20486:187.850 - 0.065ms returns 0
T453C 20486:187.872 JLINK_GetDebugInfo(0x101 = JLINKARM_DEBUG_INFO_ETM_ADDR_INDEX)
T453C 20486:187.890   Value=0x00000000
T453C 20486:187.905 - 0.038ms returns 0
T453C 20486:187.920 JLINK_ReadMemEx(0xE0041FF0, 0x10 Bytes, Flags = 0x02000004)
T453C 20486:187.941   CPU_ReadMem(16 bytes @ 0xE0041FF0)
T453C 20486:188.753   Data:  00 00 00 00 00 00 00 00 00 00 00 00 00 00 00 00
T453C 20486:188.769 - 0.853ms returns 16 (0x10)
T453C 20486:188.781 JLINK_GetDebugInfo(0x102 = JLINKARM_DEBUG_INFO_MTB_ADDR_INDEX)
T453C 20486:188.791   Value=0x00000000
T453C 20486:188.806 - 0.029ms returns 0
T453C 20486:188.817 JLINK_GetDebugInfo(0x103 = JLINKARM_DEBUG_INFO_TPIU_ADDR_INDEX)
T453C 20486:188.827   Value=0xE0040000
T453C 20486:188.843 - 0.031ms returns 0
T453C 20486:188.855 JLINK_GetDebugInfo(0x104 = JLINKARM_DEBUG_INFO_ITM_ADDR_INDEX)
T453C 20486:188.866   Value=0xE0000000
T453C 20486:188.882 - 0.032ms returns 0
T453C 20486:188.894 JLINK_GetDebugInfo(0x105 = JLINKARM_DEBUG_INFO_DWT_ADDR_INDEX)
T453C 20486:188.905   Value=0xE0001000
T453C 20486:188.921 - 0.032ms returns 0
T453C 20486:188.933 JLINK_GetDebugInfo(0x106 = JLINKARM_DEBUG_INFO_FPB_ADDR_INDEX)
T453C 20486:188.945   Value=0xE0002000
T453C 20486:188.959 - 0.031ms returns 0
T453C 20486:188.970 JLINK_GetDebugInfo(0x107 = JLINKARM_DEBUG_INFO_NVIC_ADDR_INDEX)
T453C 20486:188.981   Value=0xE000E000
T453C 20486:188.996 - 0.030ms returns 0
T453C 20486:189.007 JLINK_GetDebugInfo(0x10C = JLINKARM_DEBUG_INFO_DBG_ADDR_INDEX)
T453C 20486:189.017   Value=0xE000EDF0
T453C 20486:189.032 - 0.030ms returns 0
T453C 20486:189.043 JLINK_GetDebugInfo(0x01 = Unknown)
T453C 20486:189.053   Value=0x00000000
T453C 20486:189.068 - 0.030ms returns 0
T453C 20486:189.080 JLINK_ReadMemU32(0xE000ED00, 0x1 Items)
T453C 20486:189.093   CPU_ReadMem(4 bytes @ 0xE000ED00)
T453C 20486:189.730   Data:  31 C2 2F 41
T453C 20486:189.746   Debug reg: CPUID
T453C 20486:189.760 - 0.685ms returns 1 (0x1)
T453C 20486:189.772 JLINK_GetDebugInfo(0x10F = JLINKARM_DEBUG_INFO_HAS_CORTEX_M_SECURITY_EXT_INDEX)
T453C 20486:189.782   Value=0x00000000
T453C 20486:189.797 - 0.029ms returns 0
T453C 20486:189.808 JLINK_HasError()
T453C 20486:189.820 JLINK_SetResetType(JLINKARM_CM3_RESET_TYPE_NORMAL)
T453C 20486:189.830 - 0.015ms returns JLINKARM_CM3_RESET_TYPE_NORMAL
T453C 20486:189.841 JLINK_Reset()
T453C 20486:189.855   CPU is running
T453C 20486:189.870   CPU_WriteMem(4 bytes @ 0xE000EDF0)
T453C 20486:190.673   CPU is running
T453C 20486:190.689   CPU_WriteMem(4 bytes @ 0xE000EDFC)
T453C 20486:193.503   Reset: Halt core after reset via DEMCR.VC_CORERESET.
T453C 20486:196.320   Reset: Reset device via AIRCR.SYSRESETREQ.
T453C 20486:196.344   CPU is running
T453C 20486:196.361   CPU_WriteMem(4 bytes @ 0xE000ED0C)
T453C 20486:250.611   CPU_ReadMem(4 bytes @ 0xE000EDF0)
T453C 20486:251.411   CPU_ReadMem(4 bytes @ 0xE000EDF0)
T453C 20486:252.175   CPU is running
T453C 20486:252.231   CPU_WriteMem(4 bytes @ 0xE000EDF0)
T453C 20486:252.961   CPU is running
T453C 20486:253.019   CPU_WriteMem(4 bytes @ 0xE000EDFC)
T453C 20486:259.465   CPU_ReadMem(4 bytes @ 0xE000EDF0)
T453C 20486:263.784   CPU_WriteMem(4 bytes @ 0xE0002000)
T453C 20486:264.513   CPU_ReadMem(4 bytes @ 0xE000EDFC)
T453C 20486:265.205   CPU_ReadMem(4 bytes @ 0xE0001000)
T453C 20486:265.953 - 76.131ms
T453C 20486:266.095 JLINK_Halt()
T453C 20486:266.132 - 0.053ms returns 0x00
T453C 20486:266.171 JLINK_ReadMemU32(0xE000EDF0, 0x1 Items)
T453C 20486:266.219   CPU_ReadMem(4 bytes @ 0xE000EDF0)
T453C 20486:266.970   Data:  03 00 03 00
T453C 20486:267.024   Debug reg: DHCSR
T453C 20486:267.075 - 0.921ms returns 1 (0x1)
T453C 20486:267.118 JLINK_WriteU32_64(0xE000EDF0, 0xA05F0003)
T453C 20486:267.153   Debug reg: DHCSR
T453C 20486:267.738   CPU_WriteMem(4 bytes @ 0xE000EDF0)
T453C 20486:268.522 - 1.424ms returns 0 (0x00000000)
T453C 20486:268.566 JLINK_WriteU32_64(0xE000EDFC, 0x01000000)
T453C 20486:268.602   Debug reg: DEMCR
T453C 20486:268.658   CPU_WriteMem(4 bytes @ 0xE000EDFC)
T453C 20486:269.612 - 1.075ms returns 0 (0x00000000)
T453C 20486:281.615 JLINK_GetHWStatus(...)
T453C 20486:282.045 - 0.439ms returns 0
T453C 20486:288.885 JLINK_GetNumBPUnits(Type = 0xFFFFFF00)
T453C 20486:288.908 - 0.028ms returns 0x06
T453C 20486:288.921 JLINK_GetNumBPUnits(Type = 0xF0)
T453C 20486:288.931 - 0.015ms returns 0x2000
T453C 20486:288.943 JLINK_GetNumWPUnits()
T453C 20486:288.953 - 0.015ms returns 4
T453C 20486:291.899 JLINK_GetSpeed()
T453C 20486:291.917 - 0.022ms returns 4000
T453C 20486:293.898 JLINK_ReadMemU32(0xE000E004, 0x1 Items)
T453C 20486:293.924   CPU_ReadMem(4 bytes @ 0xE000E004)
T453C 20486:294.652   Data:  01 00 00 00
T453C 20486:294.668 - 0.775ms returns 1 (0x1)
T453C 20486:294.680 JLINK_ReadMemU32(0xE000E004, 0x1 Items)
T453C 20486:294.693   CPU_ReadMem(4 bytes @ 0xE000E004)
T453C 20486:295.337   Data:  01 00 00 00
T453C 20486:295.352 - 0.677ms returns 1 (0x1)
T453C 20486:295.366 JLINK_WriteMemEx(0xE0001000, 0x0000001C Bytes, Flags = 0x02000004)
T453C 20486:295.377   Data:  01 00 00 00 00 00 00 00 00 00 00 00 00 00 00 00 ...
T453C 20486:295.397   CPU_WriteMem(28 bytes @ 0xE0001000)
T453C 20486:296.345 - 0.984ms returns 0x1C
T453C 20486:296.360 JLINK_Halt()
T453C 20486:296.371 - 0.015ms returns 0x00
T453C 20486:296.383 JLINK_IsHalted()
T453C 20486:296.394 - 0.015ms returns TRUE
T453C 20486:298.049 JLINK_WriteMem(0x20000000, 0x17C Bytes, ...)
T453C 20486:298.064   Data:  00 BE 0A E0 0D 78 2D 06 68 40 08 24 40 00 00 D3 ...
T453C 20486:298.263   CPU_WriteMem(380 bytes @ 0x20000000)
T453C 20486:303.447 - 5.408ms returns 0x17C
T453C 20486:303.482 JLINK_HasError()
T453C 20486:303.497 JLINK_WriteReg(R0, 0x08000000)
T453C 20486:303.510 - 0.019ms returns 0
T453C 20486:303.522 JLINK_WriteReg(R1, 0x00B71B00)
T453C 20486:303.533 - 0.016ms returns 0
T453C 20486:303.545 JLINK_WriteReg(R2, 0x00000001)
T453C 20486:303.556 - 0.016ms returns 0
T453C 20486:303.567 JLINK_WriteReg(R3, 0x00000000)
T453C 20486:303.578 - 0.016ms returns 0
T453C 20486:303.590 JLINK_WriteReg(R4, 0x00000000)
T453C 20486:303.600 - 0.016ms returns 0
T453C 20486:303.612 JLINK_WriteReg(R5, 0x00000000)
T453C 20486:303.623 - 0.016ms returns 0
T453C 20486:303.634 JLINK_WriteReg(R6, 0x00000000)
T453C 20486:303.645 - 0.016ms returns 0
T453C 20486:303.657 JLINK_WriteReg(R7, 0x00000000)
T453C 20486:303.667 - 0.016ms returns 0
T453C 20486:303.679 JLINK_WriteReg(R8, 0x00000000)
T453C 20486:303.690 - 0.016ms returns 0
T453C 20486:303.701 JLINK_WriteReg(R9, 0x20000174)
T453C 20486:303.712 - 0.016ms returns 0
T453C 20486:303.723 JLINK_WriteReg(R10, 0x00000000)
T453C 20486:303.737 - 0.019ms returns 0
T453C 20486:303.749 JLINK_WriteReg(R11, 0x00000000)
T453C 20486:303.762 - 0.017ms returns 0
T453C 20486:303.773 JLINK_WriteReg(R12, 0x00000000)
T453C 20486:303.784 - 0.018ms returns 0
T453C 20486:303.797 JLINK_WriteReg(R13 (SP), 0x20001000)
T453C 20486:303.809 - 0.017ms returns 0
T453C 20486:303.821 JLINK_WriteReg(R14, 0x20000001)
T453C 20486:303.831 - 0.016ms returns 0
T453C 20486:303.843 JLINK_WriteReg(R15 (PC), 0x20000038)
T453C 20486:303.854 - 0.016ms returns 0
T453C 20486:303.865 JLINK_WriteReg(XPSR, 0x01000000)
T453C 20486:303.876 - 0.016ms returns 0
T453C 20486:303.887 JLINK_WriteReg(MSP, 0x20001000)
T453C 20486:303.898 - 0.016ms returns 0
T453C 20486:303.910 JLINK_WriteReg(PSP, 0x20001000)
T453C 20486:303.921 - 0.016ms returns 0
T453C 20486:303.932 JLINK_WriteReg(CFBP, 0x00000000)
T453C 20486:303.943 - 0.016ms returns 0
T453C 20486:303.955 JLINK_SetBPEx(Addr = 0x20000000, Type = 0xFFFFFFF2)
T453C 20486:303.969   CPU_ReadMem(4 bytes @ 0x20000000)
T453C 20486:304.649   CPU_WriteMem(4 bytes @ 0x20000000)
T453C 20486:305.310   CPU_ReadMem(4 bytes @ 0x20000000)
T453C 20486:305.975   CPU_WriteMem(4 bytes @ 0x20000000)
T453C 20486:306.643   CPU_ReadMem(2 bytes @ 0x20000000)
T453C 20486:307.358 - 3.408ms returns 0x00000001
T453C 20486:307.374 JLINK_Go()
T453C 20486:307.387   CPU_WriteMem(2 bytes @ 0x20000000)
T453C 20486:308.123   CPU_ReadMem(4 bytes @ 0xE0001000)
T453C 20486:308.802   CPU_WriteMem(4 bytes @ 0xE0002008)
T453C 20486:308.819   CPU_WriteMem(4 bytes @ 0xE000200C)
T453C 20486:308.835   CPU_WriteMem(4 bytes @ 0xE0002010)
T453C 20486:308.850   CPU_WriteMem(4 bytes @ 0xE0002014)
T453C 20486:308.866   CPU_WriteMem(4 bytes @ 0xE0002018)
T453C 20486:308.881   CPU_WriteMem(4 bytes @ 0xE000201C)
T453C 20486:311.511   CPU_WriteMem(4 bytes @ 0xE0001004)
T453C 20486:315.638 - 8.272ms
T453C 20486:315.657 JLINK_IsHalted()
T453C 20486:319.229   CPU_ReadMem(2 bytes @ 0x20000000)
T453C 20486:319.913 - 4.270ms returns TRUE
T453C 20486:319.945 JLINK_ReadReg(R15 (PC))
T453C 20486:319.964 - 0.026ms returns 0x20000000
T453C 20486:319.983 JLINK_ClrBPEx(BPHandle = 0x00000001)
T453C 20486:319.999 - 0.023ms returns 0x00
T453C 20486:320.018 JLINK_ReadReg(R0)
T453C 20486:320.034 - 0.023ms returns 0x00000000
T453C 20486:320.729 JLINK_HasError()
T453C 20486:320.757 JLINK_WriteReg(R0, 0x08000000)
T453C 20486:320.777 - 0.027ms returns 0
T453C 20486:320.794 JLINK_WriteReg(R1, 0x00B71B00)
T453C 20486:320.809 - 0.022ms returns 0
T453C 20486:320.825 JLINK_WriteReg(R2, 0x00000001)
T453C 20486:320.841 - 0.032ms returns 0
T453C 20486:320.868 JLINK_WriteReg(R3, 0x00000000)
T453C 20486:320.883 - 0.022ms returns 0
T453C 20486:320.899 JLINK_WriteReg(R4, 0x00000000)
T453C 20486:320.914 - 0.022ms returns 0
T453C 20486:320.931 JLINK_WriteReg(R5, 0x00000000)
T453C 20486:320.946 - 0.022ms returns 0
T453C 20486:320.962 JLINK_WriteReg(R6, 0x00000000)
T453C 20486:320.978 - 0.023ms returns 0
T453C 20486:320.993 JLINK_WriteReg(R7, 0x00000000)
T453C 20486:321.008 - 0.022ms returns 0
T453C 20486:321.024 JLINK_WriteReg(R8, 0x00000000)
T453C 20486:321.038 - 0.022ms returns 0
T453C 20486:321.054 JLINK_WriteReg(R9, 0x20000174)
T453C 20486:321.068 - 0.021ms returns 0
T453C 20486:321.084 JLINK_WriteReg(R10, 0x00000000)
T453C 20486:321.098 - 0.021ms returns 0
T453C 20486:321.114 JLINK_WriteReg(R11, 0x00000000)
T453C 20486:321.128 - 0.021ms returns 0
T453C 20486:321.144 JLINK_WriteReg(R12, 0x00000000)
T453C 20486:321.158 - 0.021ms returns 0
T453C 20486:321.174 JLINK_WriteReg(R13 (SP), 0x20001000)
T453C 20486:321.189 - 0.022ms returns 0
T453C 20486:321.205 JLINK_WriteReg(R14, 0x20000001)
T453C 20486:321.219 - 0.021ms returns 0
T453C 20486:321.235 JLINK_WriteReg(R15 (PC), 0x20000086)
T453C 20486:321.249 - 0.021ms returns 0
T453C 20486:321.265 JLINK_WriteReg(XPSR, 0x01000000)
T453C 20486:321.280 - 0.022ms returns 0
T453C 20486:321.295 JLINK_WriteReg(MSP, 0x20001000)
T453C 20486:321.310 - 0.021ms returns 0
T453C 20486:321.325 JLINK_WriteReg(PSP, 0x20001000)
T453C 20486:321.400 - 0.090ms returns 0
T453C 20486:321.426 JLINK_WriteReg(CFBP, 0x00000000)
T453C 20486:321.442 - 0.023ms returns 0
T453C 20486:321.459 JLINK_SetBPEx(Addr = 0x20000000, Type = 0xFFFFFFF2)
T453C 20486:321.475 - 0.023ms returns 0x00000002
T453C 20486:321.491 JLINK_Go()
T453C 20486:321.516   CPU_ReadMem(4 bytes @ 0xE0001000)
T453C 20486:325.560 - 4.088ms
T453C 20486:325.592 JLINK_IsHalted()
T453C 20486:326.264 - 0.681ms returns FALSE
T453C 20486:326.285 JLINK_HasError()
T453C 20486:340.436 JLINK_IsHalted()
T453C 20486:343.979   CPU_ReadMem(2 bytes @ 0x20000000)
T453C 20486:344.626 - 4.196ms returns TRUE
T453C 20486:344.642 JLINK_ReadReg(R15 (PC))
T453C 20486:344.654 - 0.017ms returns 0x20000000
T453C 20486:344.666 JLINK_ClrBPEx(BPHandle = 0x00000002)
T453C 20486:344.677 - 0.016ms returns 0x00
T453C 20486:344.689 JLINK_ReadReg(R0)
T453C 20486:344.699 - 0.016ms returns 0x00000000
T453C 20486:397.305 JLINK_HasError()
T453C 20486:397.375 JLINK_WriteReg(R0, 0x00000001)
T453C 20486:397.418 - 0.059ms returns 0
T453C 20486:397.454 JLINK_WriteReg(R1, 0x00B71B00)
T453C 20486:397.488 - 0.049ms returns 0
T453C 20486:397.545 JLINK_WriteReg(R2, 0x00000001)
T453C 20486:397.579 - 0.049ms returns 0
T453C 20486:397.614 JLINK_WriteReg(R3, 0x00000000)
T453C 20486:397.647 - 0.048ms returns 0
T453C 20486:397.682 JLINK_WriteReg(R4, 0x00000000)
T453C 20486:397.714 - 0.048ms returns 0
T453C 20486:397.750 JLINK_WriteReg(R5, 0x00000000)
T453C 20486:397.782 - 0.048ms returns 0
T453C 20486:397.816 JLINK_WriteReg(R6, 0x00000000)
T453C 20486:397.849 - 0.048ms returns 0
T453C 20486:397.884 JLINK_WriteReg(R7, 0x00000000)
T453C 20486:397.916 - 0.048ms returns 0
T453C 20486:397.951 JLINK_WriteReg(R8, 0x00000000)
T453C 20486:397.984 - 0.048ms returns 0
T453C 20486:398.018 JLINK_WriteReg(R9, 0x20000174)
T453C 20486:398.050 - 0.048ms returns 0
T453C 20486:398.084 JLINK_WriteReg(R10, 0x00000000)
T453C 20486:398.117 - 0.048ms returns 0
T453C 20486:398.151 JLINK_WriteReg(R11, 0x00000000)
T453C 20486:398.184 - 0.048ms returns 0
T453C 20486:398.218 JLINK_WriteReg(R12, 0x00000000)
T453C 20486:398.251 - 0.048ms returns 0
T453C 20486:398.285 JLINK_WriteReg(R13 (SP), 0x20001000)
T453C 20486:398.319 - 0.050ms returns 0
T453C 20486:398.354 JLINK_WriteReg(R14, 0x20000001)
T453C 20486:398.386 - 0.048ms returns 0
T453C 20486:398.420 JLINK_WriteReg(R15 (PC), 0x20000074)
T453C 20486:398.453 - 0.048ms returns 0
T453C 20486:398.488 JLINK_WriteReg(XPSR, 0x01000000)
T453C 20486:398.524 - 0.051ms returns 0
T453C 20486:398.558 JLINK_WriteReg(MSP, 0x20001000)
T453C 20486:398.590 - 0.048ms returns 0
T453C 20486:398.625 JLINK_WriteReg(PSP, 0x20001000)
T453C 20486:398.658 - 0.048ms returns 0
T453C 20486:398.692 JLINK_WriteReg(CFBP, 0x00000000)
T453C 20486:398.725 - 0.048ms returns 0
T453C 20486:398.759 JLINK_SetBPEx(Addr = 0x20000000, Type = 0xFFFFFFF2)
T453C 20486:398.795 - 0.052ms returns 0x00000003
T453C 20486:398.831 JLINK_Go()
T453C 20486:398.884   CPU_ReadMem(4 bytes @ 0xE0001000)
T453C 20486:403.439 - 4.650ms
T453C 20486:403.512 JLINK_IsHalted()
T453C 20486:407.195   CPU_ReadMem(2 bytes @ 0x20000000)
T453C 20486:408.005 - 4.515ms returns TRUE
T453C 20486:408.057 JLINK_ReadReg(R15 (PC))
T453C 20486:408.102 - 0.065ms returns 0x20000000
T453C 20486:408.148 JLINK_ClrBPEx(BPHandle = 0x00000003)
T453C 20486:408.191 - 0.064ms returns 0x00
T453C 20486:408.238 JLINK_ReadReg(R0)
T453C 20486:408.285 - 0.069ms returns 0x00000000
T453C 20486:422.954 JLINK_WriteMem(0x20000000, 0x17C Bytes, ...)
T453C 20486:422.993   Data:  00 BE 0A E0 0D 78 2D 06 68 40 08 24 40 00 00 D3 ...
T453C 20486:423.035   CPU_WriteMem(380 bytes @ 0x20000000)
T453C 20486:428.328 - 5.397ms returns 0x17C
T453C 20486:428.394 JLINK_HasError()
T453C 20486:428.415 JLINK_WriteReg(R0, 0x08000000)
T453C 20486:428.436 - 0.030ms returns 0
T453C 20486:428.455 JLINK_WriteReg(R1, 0x00B71B00)
T453C 20486:428.476 - 0.031ms returns 0
T453C 20486:428.498 JLINK_WriteReg(R2, 0x00000002)
T453C 20486:428.520 - 0.031ms returns 0
T453C 20486:428.603 JLINK_WriteReg(R3, 0x00000000)
T453C 20486:428.625 - 0.031ms returns 0
T453C 20486:428.645 JLINK_WriteReg(R4, 0x00000000)
T453C 20486:428.663 - 0.027ms returns 0
T453C 20486:428.683 JLINK_WriteReg(R5, 0x00000000)
T453C 20486:428.702 - 0.027ms returns 0
T453C 20486:428.721 JLINK_WriteReg(R6, 0x00000000)
T453C 20486:428.740 - 0.028ms returns 0
T453C 20486:428.760 JLINK_WriteReg(R7, 0x00000000)
T453C 20486:428.778 - 0.027ms returns 0
T453C 20486:428.798 JLINK_WriteReg(R8, 0x00000000)
T453C 20486:428.817 - 0.028ms returns 0
T453C 20486:428.836 JLINK_WriteReg(R9, 0x20000174)
T453C 20486:428.854 - 0.026ms returns 0
T453C 20486:428.873 JLINK_WriteReg(R10, 0x00000000)
T453C 20486:428.891 - 0.026ms returns 0
T453C 20486:428.909 JLINK_WriteReg(R11, 0x00000000)
T453C 20486:428.926 - 0.025ms returns 0
T453C 20486:428.945 JLINK_WriteReg(R12, 0x00000000)
T453C 20486:428.965 - 0.029ms returns 0
T453C 20486:428.984 JLINK_WriteReg(R13 (SP), 0x20001000)
T453C 20486:429.004 - 0.028ms returns 0
T453C 20486:429.023 JLINK_WriteReg(R14, 0x20000001)
T453C 20486:429.038 - 0.022ms returns 0
T453C 20486:429.053 JLINK_WriteReg(R15 (PC), 0x20000038)
T453C 20486:429.068 - 0.022ms returns 0
T453C 20486:429.083 JLINK_WriteReg(XPSR, 0x01000000)
T453C 20486:429.098 - 0.021ms returns 0
T453C 20486:429.114 JLINK_WriteReg(MSP, 0x20001000)
T453C 20486:429.128 - 0.021ms returns 0
T453C 20486:429.144 JLINK_WriteReg(PSP, 0x20001000)
T453C 20486:429.158 - 0.021ms returns 0
T453C 20486:429.174 JLINK_WriteReg(CFBP, 0x00000000)
T453C 20486:429.188 - 0.021ms returns 0
T453C 20486:429.204 JLINK_SetBPEx(Addr = 0x20000000, Type = 0xFFFFFFF2)
T453C 20486:429.225   CPU_ReadMem(4 bytes @ 0x20000000)
T453C 20486:429.946   CPU_WriteMem(4 bytes @ 0x20000000)
T453C 20486:430.646   CPU_ReadMem(4 bytes @ 0x20000000)
T453C 20486:431.293   CPU_WriteMem(4 bytes @ 0x20000000)
T453C 20486:432.030   CPU_ReadMem(2 bytes @ 0x20000000)
T453C 20486:432.665 - 3.468ms returns 0x00000004
T453C 20486:432.684 JLINK_Go()
T453C 20486:432.701   CPU_WriteMem(2 bytes @ 0x20000000)
T453C 20486:433.435   CPU_ReadMem(4 bytes @ 0xE0001000)
T453C 20486:437.637 - 4.964ms
T453C 20486:437.663 JLINK_IsHalted()
T453C 20486:441.244   CPU_ReadMem(2 bytes @ 0x20000000)
T453C 20486:442.070 - 4.435ms returns TRUE
T453C 20486:442.118 JLINK_ReadReg(R15 (PC))
T453C 20486:442.149 - 0.042ms returns 0x20000000
T453C 20486:442.175 JLINK_ClrBPEx(BPHandle = 0x00000004)
T453C 20486:442.201 - 0.037ms returns 0x00
T453C 20486:442.227 JLINK_ReadReg(R0)
T453C 20486:442.252 - 0.036ms returns 0x00000000
T453C 20486:443.694 JLINK_WriteMem(0x2000017C, 0x284 Bytes, ...)
T453C 20486:443.732   Data:  18 45 00 20 59 01 00 08 1B 10 00 08 21 02 00 08 ...
T453C 20486:443.785   CPU_WriteMem(644 bytes @ 0x2000017C)
T453C 20486:451.861 - 8.188ms returns 0x284
T453C 20486:451.905 JLINK_WriteMem(0x20000400, 0x17C Bytes, ...)
T453C 20486:451.935   Data:  13 46 0A 46 04 46 19 46 FF F7 F0 FF 20 46 10 BD ...
T453C 20486:451.988   CPU_WriteMem(380 bytes @ 0x20000400)
T453C 20486:457.172 - 5.296ms returns 0x17C
T453C 20486:457.235 JLINK_HasError()
T453C 20486:457.279 JLINK_WriteReg(R0, 0x08000000)
T453C 20486:457.324 - 0.064ms returns 0
T453C 20486:457.369 JLINK_WriteReg(R1, 0x00000400)
T453C 20486:457.408 - 0.058ms returns 0
T453C 20486:457.452 JLINK_WriteReg(R2, 0x2000017C)
T453C 20486:457.490 - 0.057ms returns 0
T453C 20486:457.534 JLINK_WriteReg(R3, 0x00000000)
T453C 20486:457.573 - 0.058ms returns 0
T453C 20486:457.618 JLINK_WriteReg(R4, 0x00000000)
T453C 20486:457.656 - 0.057ms returns 0
T453C 20486:457.700 JLINK_WriteReg(R5, 0x00000000)
T453C 20486:457.738 - 0.056ms returns 0
T453C 20486:457.781 JLINK_WriteReg(R6, 0x00000000)
T453C 20486:457.819 - 0.057ms returns 0
T453C 20486:457.863 JLINK_WriteReg(R7, 0x00000000)
T453C 20486:457.901 - 0.056ms returns 0
T453C 20486:457.941 JLINK_WriteReg(R8, 0x00000000)
T453C 20486:457.979 - 0.056ms returns 0
T453C 20486:458.022 JLINK_WriteReg(R9, 0x20000174)
T453C 20486:458.060 - 0.056ms returns 0
T453C 20486:458.211 JLINK_WriteReg(R10, 0x00000000)
T453C 20486:458.254 - 0.060ms returns 0
T453C 20486:458.293 JLINK_WriteReg(R11, 0x00000000)
T453C 20486:458.329 - 0.052ms returns 0
T453C 20486:458.448 JLINK_WriteReg(R12, 0x00000000)
T453C 20486:458.522 - 0.092ms returns 0
T453C 20486:458.564 JLINK_WriteReg(R13 (SP), 0x20001000)
T453C 20486:458.601 - 0.054ms returns 0
T453C 20486:458.638 JLINK_WriteReg(R14, 0x20000001)
T453C 20486:458.674 - 0.052ms returns 0
T453C 20486:458.711 JLINK_WriteReg(R15 (PC), 0x20000102)
T453C 20486:458.746 - 0.052ms returns 0
T453C 20486:458.783 JLINK_WriteReg(XPSR, 0x01000000)
T453C 20486:458.819 - 0.052ms returns 0
T453C 20486:458.855 JLINK_WriteReg(MSP, 0x20001000)
T453C 20486:458.890 - 0.052ms returns 0
T453C 20486:458.928 JLINK_WriteReg(PSP, 0x20001000)
T453C 20486:458.962 - 0.051ms returns 0
T453C 20486:458.999 JLINK_WriteReg(CFBP, 0x00000000)
T453C 20486:459.034 - 0.056ms returns 0
T453C 20486:459.077 JLINK_SetBPEx(Addr = 0x20000000, Type = 0xFFFFFFF2)
T453C 20486:459.117 - 0.059ms returns 0x00000005
T453C 20486:459.286 JLINK_Go()
T453C 20486:459.352   CPU_ReadMem(4 bytes @ 0xE0001000)
T453C 20486:463.645 - 4.391ms
T453C 20486:463.703 JLINK_IsHalted()
T453C 20486:464.373 - 0.689ms returns FALSE
T453C 20486:464.416 JLINK_HasError()
T453C 20486:480.652 JLINK_IsHalted()
T453C 20486:484.317   CPU_ReadMem(2 bytes @ 0x20000000)
T453C 20486:485.034 - 4.391ms returns TRUE
T453C 20486:485.060 JLINK_ReadReg(R15 (PC))
T453C 20486:485.081 - 0.030ms returns 0x20000000
T453C 20486:485.126 JLINK_ClrBPEx(BPHandle = 0x00000005)
T453C 20486:485.145 - 0.028ms returns 0x00
T453C 20486:485.166 JLINK_ReadReg(R0)
T453C 20486:485.184 - 0.027ms returns 0x00000000
T453C 20486:485.652 JLINK_WriteMem(0x2000017C, 0x284 Bytes, ...)
T453C 20486:485.676   Data:  42 68 22 F0 04 02 12 1D 42 60 0B E0 82 69 22 F0 ...
T453C 20486:485.711   CPU_WriteMem(644 bytes @ 0x2000017C)
T453C 20486:493.784 - 8.159ms returns 0x284
T453C 20486:493.833 JLINK_WriteMem(0x20000400, 0x17C Bytes, ...)
T453C 20486:493.863   Data:  70 47 02 46 00 20 53 69 0B 40 00 2B 6C D0 B1 F5 ...
T453C 20486:493.917   CPU_WriteMem(380 bytes @ 0x20000400)
T453C 20486:499.127 - 5.315ms returns 0x17C
T453C 20486:499.175 JLINK_HasError()
T453C 20486:499.218 JLINK_WriteReg(R0, 0x08000400)
T453C 20486:499.261 - 0.062ms returns 0
T453C 20486:499.303 JLINK_WriteReg(R1, 0x00000400)
T453C 20486:499.342 - 0.058ms returns 0
T453C 20486:499.383 JLINK_WriteReg(R2, 0x2000017C)
T453C 20486:499.421 - 0.056ms returns 0
T453C 20486:499.461 JLINK_WriteReg(R3, 0x00000000)
T453C 20486:499.499 - 0.056ms returns 0
T453C 20486:499.546 JLINK_WriteReg(R4, 0x00000000)
T453C 20486:499.584 - 0.056ms returns 0
T453C 20486:499.626 JLINK_WriteReg(R5, 0x00000000)
T453C 20486:499.665 - 0.059ms returns 0
T453C 20486:499.706 JLINK_WriteReg(R6, 0x00000000)
T453C 20486:499.744 - 0.056ms returns 0
T453C 20486:499.784 JLINK_WriteReg(R7, 0x00000000)
T453C 20486:499.822 - 0.056ms returns 0
T453C 20486:499.862 JLINK_WriteReg(R8, 0x00000000)
T453C 20486:499.900 - 0.057ms returns 0
T453C 20486:499.940 JLINK_WriteReg(R9, 0x20000174)
T453C 20486:499.978 - 0.056ms returns 0
T453C 20486:500.018 JLINK_WriteReg(R10, 0x00000000)
T453C 20486:500.056 - 0.056ms returns 0
T453C 20486:500.096 JLINK_WriteReg(R11, 0x00000000)
T453C 20486:500.134 - 0.056ms returns 0
T453C 20486:500.174 JLINK_WriteReg(R12, 0x00000000)
T453C 20486:500.212 - 0.057ms returns 0
T453C 20486:500.251 JLINK_WriteReg(R13 (SP), 0x20001000)
T453C 20486:500.287 - 0.053ms returns 0
T453C 20486:500.324 JLINK_WriteReg(R14, 0x20000001)
T453C 20486:500.359 - 0.052ms returns 0
T453C 20486:500.396 JLINK_WriteReg(R15 (PC), 0x20000102)
T453C 20486:500.431 - 0.052ms returns 0
T453C 20486:500.468 JLINK_WriteReg(XPSR, 0x01000000)
T453C 20486:500.504 - 0.052ms returns 0
T453C 20486:500.545 JLINK_WriteReg(MSP, 0x20001000)
T453C 20486:500.580 - 0.052ms returns 0
T453C 20486:500.618 JLINK_WriteReg(PSP, 0x20001000)
T453C 20486:500.653 - 0.053ms returns 0
T453C 20486:500.692 JLINK_WriteReg(CFBP, 0x00000000)
T453C 20486:500.738 - 0.063ms returns 0
T453C 20486:500.775 JLINK_SetBPEx(Addr = 0x20000000, Type = 0xFFFFFFF2)
T453C 20486:500.813 - 0.056ms returns 0x00000006
T453C 20486:500.851 JLINK_Go()
T453C 20486:500.894   CPU_ReadMem(4 bytes @ 0xE0001000)
T453C 20486:506.128 - 5.325ms
T453C 20486:506.205 JLINK_IsHalted()
T453C 20486:506.940 - 0.781ms returns FALSE
T453C 20486:507.017 JLINK_HasError()
T453C 20486:510.543 JLINK_IsHalted()
T453C 20486:511.293 - 0.770ms returns FALSE
T453C 20486:511.342 JLINK_HasError()
T453C 20486:512.528 JLINK_IsHalted()
T453C 20486:513.261 - 0.774ms returns FALSE
T453C 20486:513.326 JLINK_HasError()
T453C 20486:514.522 JLINK_IsHalted()
T453C 20486:515.269 - 0.767ms returns FALSE
T453C 20486:515.314 JLINK_HasError()
T453C 20486:516.515 JLINK_IsHalted()
T453C 20486:517.396 - 0.903ms returns FALSE
T453C 20486:517.445 JLINK_HasError()
T453C 20486:519.488 JLINK_IsHalted()
T453C 20486:523.296   CPU_ReadMem(2 bytes @ 0x20000000)
T453C 20486:524.112 - 4.650ms returns TRUE
T453C 20486:524.164 JLINK_ReadReg(R15 (PC))
T453C 20486:524.206 - 0.059ms returns 0x20000000
T453C 20486:524.244 JLINK_ClrBPEx(BPHandle = 0x00000006)
T453C 20486:524.281 - 0.053ms returns 0x00
T453C 20486:524.318 JLINK_ReadReg(R0)
T453C 20486:524.354 - 0.053ms returns 0x00000000
T453C 20486:526.688 JLINK_WriteMem(0x2000017C, 0x284 Bytes, ...)
T453C 20486:526.738   Data:  03 EB 01 13 5B 68 03 F0 0F 03 13 74 00 F5 D8 73 ...
T453C 20486:526.802   CPU_WriteMem(644 bytes @ 0x2000017C)
T453C 20486:534.959 - 8.302ms returns 0x284
T453C 20486:535.016 JLINK_WriteMem(0x20000400, 0x17C Bytes, ...)
T453C 20486:535.055   Data:  01 A9 08 48 FF F7 61 FD 01 22 00 21 13 20 00 F0 ...
T453C 20486:535.121   CPU_WriteMem(380 bytes @ 0x20000400)
T453C 20486:540.457 - 5.477ms returns 0x17C
T453C 20486:540.531 JLINK_HasError()
T453C 20486:540.608 JLINK_WriteReg(R0, 0x08000800)
T453C 20486:540.647 - 0.053ms returns 0
T453C 20486:540.680 JLINK_WriteReg(R1, 0x00000400)
T453C 20486:540.711 - 0.046ms returns 0
T453C 20486:540.743 JLINK_WriteReg(R2, 0x2000017C)
T453C 20486:540.774 - 0.045ms returns 0
T453C 20486:540.806 JLINK_WriteReg(R3, 0x00000000)
T453C 20486:540.836 - 0.045ms returns 0
T453C 20486:540.869 JLINK_WriteReg(R4, 0x00000000)
T453C 20486:540.899 - 0.044ms returns 0
T453C 20486:540.931 JLINK_WriteReg(R5, 0x00000000)
T453C 20486:540.961 - 0.045ms returns 0
T453C 20486:540.993 JLINK_WriteReg(R6, 0x00000000)
T453C 20486:541.024 - 0.045ms returns 0
T453C 20486:541.056 JLINK_WriteReg(R7, 0x00000000)
T453C 20486:541.086 - 0.044ms returns 0
T453C 20486:541.118 JLINK_WriteReg(R8, 0x00000000)
T453C 20486:541.149 - 0.045ms returns 0
T453C 20486:541.181 JLINK_WriteReg(R9, 0x20000174)
T453C 20486:541.212 - 0.058ms returns 0
T453C 20486:541.256 JLINK_WriteReg(R10, 0x00000000)
T453C 20486:541.285 - 0.043ms returns 0
T453C 20486:541.316 JLINK_WriteReg(R11, 0x00000000)
T453C 20486:541.377 - 0.075ms returns 0
T453C 20486:541.407 JLINK_WriteReg(R12, 0x00000000)
T453C 20486:541.436 - 0.042ms returns 0
T453C 20486:541.466 JLINK_WriteReg(R13 (SP), 0x20001000)
T453C 20486:541.496 - 0.044ms returns 0
T453C 20486:541.527 JLINK_WriteReg(R14, 0x20000001)
T453C 20486:541.556 - 0.042ms returns 0
T453C 20486:541.586 JLINK_WriteReg(R15 (PC), 0x20000102)
T453C 20486:541.615 - 0.042ms returns 0
T453C 20486:541.645 JLINK_WriteReg(XPSR, 0x01000000)
T453C 20486:541.674 - 0.043ms returns 0
T453C 20486:541.704 JLINK_WriteReg(MSP, 0x20001000)
T453C 20486:541.733 - 0.042ms returns 0
T453C 20486:541.763 JLINK_WriteReg(PSP, 0x20001000)
T453C 20486:541.792 - 0.042ms returns 0
T453C 20486:541.822 JLINK_WriteReg(CFBP, 0x00000000)
T453C 20486:541.851 - 0.043ms returns 0
T453C 20486:541.882 JLINK_SetBPEx(Addr = 0x20000000, Type = 0xFFFFFFF2)
T453C 20486:541.913 - 0.045ms returns 0x00000007
T453C 20486:541.944 JLINK_Go()
T453C 20486:541.985   CPU_ReadMem(4 bytes @ 0xE0001000)
T453C 20486:546.353 - 4.443ms
T453C 20486:546.414 JLINK_IsHalted()
T453C 20486:547.167 - 0.773ms returns FALSE
T453C 20486:547.221 JLINK_HasError()
T453C 20486:557.881 JLINK_IsHalted()
T453C 20486:558.729 - 0.867ms returns FALSE
T453C 20486:558.771 JLINK_HasError()
T453C 20486:561.861 JLINK_IsHalted()
T453C 20486:565.746   CPU_ReadMem(2 bytes @ 0x20000000)
T453C 20486:566.676 - 4.853ms returns TRUE
T453C 20486:566.748 JLINK_ReadReg(R15 (PC))
T453C 20486:566.789 - 0.057ms returns 0x20000000
T453C 20486:566.828 JLINK_ClrBPEx(BPHandle = 0x00000007)
T453C 20486:566.864 - 0.051ms returns 0x00
T453C 20486:566.966 JLINK_ReadReg(R0)
T453C 20486:567.009 - 0.059ms returns 0x00000000
T453C 20486:572.220 JLINK_WriteMem(0x2000017C, 0x284 Bytes, ...)
T453C 20486:572.282   Data:  8D F8 0E 00 00 20 8D F8 0C 00 01 A9 12 48 01 F0 ...
T453C 20486:572.355   CPU_WriteMem(644 bytes @ 0x2000017C)
T453C 20486:580.496 - 8.314ms returns 0x284
T453C 20486:580.563 JLINK_WriteMem(0x20000400, 0x17C Bytes, ...)
T453C 20486:580.610   Data:  64 31 88 42 08 D1 2A 49 08 39 49 68 61 F4 70 01 ...
T453C 20486:580.732   CPU_WriteMem(380 bytes @ 0x20000400)
T453C 20486:586.045 - 5.519ms returns 0x17C
T453C 20486:586.110 JLINK_HasError()
T453C 20486:586.147 JLINK_WriteReg(R0, 0x08000C00)
T453C 20486:586.198 - 0.067ms returns 0
T453C 20486:586.233 JLINK_WriteReg(R1, 0x00000400)
T453C 20486:586.290 - 0.099ms returns 0
T453C 20486:586.362 JLINK_WriteReg(R2, 0x2000017C)
T453C 20486:586.397 - 0.051ms returns 0
T453C 20486:586.433 JLINK_WriteReg(R3, 0x00000000)
T453C 20486:586.466 - 0.049ms returns 0
T453C 20486:586.500 JLINK_WriteReg(R4, 0x00000000)
T453C 20486:586.533 - 0.048ms returns 0
T453C 20486:586.567 JLINK_WriteReg(R5, 0x00000000)
T453C 20486:586.601 - 0.050ms returns 0
T453C 20486:586.636 JLINK_WriteReg(R6, 0x00000000)
T453C 20486:586.669 - 0.050ms returns 0
T453C 20486:586.706 JLINK_WriteReg(R7, 0x00000000)
T453C 20486:586.738 - 0.048ms returns 0
T453C 20486:586.773 JLINK_WriteReg(R8, 0x00000000)
T453C 20486:586.806 - 0.048ms returns 0
T453C 20486:586.841 JLINK_WriteReg(R9, 0x20000174)
T453C 20486:586.875 - 0.060ms returns 0
T453C 20486:586.920 JLINK_WriteReg(R10, 0x00000000)
T453C 20486:586.953 - 0.048ms returns 0
T453C 20486:586.989 JLINK_WriteReg(R11, 0x00000000)
T453C 20486:587.021 - 0.047ms returns 0
T453C 20486:587.054 JLINK_WriteReg(R12, 0x00000000)
T453C 20486:587.084 - 0.045ms returns 0
T453C 20486:587.116 JLINK_WriteReg(R13 (SP), 0x20001000)
T453C 20486:587.148 - 0.046ms returns 0
T453C 20486:587.180 JLINK_WriteReg(R14, 0x20000001)
T453C 20486:587.210 - 0.044ms returns 0
T453C 20486:587.242 JLINK_WriteReg(R15 (PC), 0x20000102)
T453C 20486:587.272 - 0.045ms returns 0
T453C 20486:587.304 JLINK_WriteReg(XPSR, 0x01000000)
T453C 20486:587.334 - 0.045ms returns 0
T453C 20486:587.367 JLINK_WriteReg(MSP, 0x20001000)
T453C 20486:587.397 - 0.044ms returns 0
T453C 20486:587.429 JLINK_WriteReg(PSP, 0x20001000)
T453C 20486:587.459 - 0.044ms returns 0
T453C 20486:587.491 JLINK_WriteReg(CFBP, 0x00000000)
T453C 20486:587.521 - 0.044ms returns 0
T453C 20486:587.554 JLINK_SetBPEx(Addr = 0x20000000, Type = 0xFFFFFFF2)
T453C 20486:587.588 - 0.049ms returns 0x00000008
T453C 20486:587.621 JLINK_Go()
T453C 20486:587.665   CPU_ReadMem(4 bytes @ 0xE0001000)
T453C 20486:592.041 - 4.447ms
T453C 20486:592.091 JLINK_IsHalted()
T453C 20486:592.759 - 0.685ms returns FALSE
T453C 20486:592.795 JLINK_HasError()
T453C 20486:602.642 JLINK_IsHalted()
T453C 20486:603.340 - 0.706ms returns FALSE
T453C 20486:603.362 JLINK_HasError()
T453C 20486:604.660 JLINK_IsHalted()
T453C 20486:608.257   CPU_ReadMem(2 bytes @ 0x20000000)
T453C 20486:608.913 - 4.264ms returns TRUE
T453C 20486:608.939 JLINK_ReadReg(R15 (PC))
T453C 20486:608.962 - 0.033ms returns 0x20000000
T453C 20486:608.985 JLINK_ClrBPEx(BPHandle = 0x00000008)
T453C 20486:609.007 - 0.032ms returns 0x00
T453C 20486:609.030 JLINK_ReadReg(R0)
T453C 20486:609.051 - 0.031ms returns 0x00000000
T453C 20486:609.572 JLINK_WriteMem(0x2000017C, 0x284 Bytes, ...)
T453C 20486:609.600   Data:  0B B1 01 23 00 E0 00 23 18 46 70 47 0A B1 01 61 ...
T453C 20486:609.639   CPU_WriteMem(644 bytes @ 0x2000017C)
T453C 20486:617.768 - 8.220ms returns 0x284
T453C 20486:617.810 JLINK_WriteMem(0x20000400, 0x17C Bytes, ...)
T453C 20486:617.833   Data:  60 50 48 60 08 46 40 68 20 F4 E0 60 00 F5 80 60 ...
T453C 20486:617.875   CPU_WriteMem(380 bytes @ 0x20000400)
T453C 20486:623.078 - 5.288ms returns 0x17C
T453C 20486:623.127 JLINK_HasError()
T453C 20486:623.219 JLINK_WriteReg(R0, 0x08001000)
T453C 20486:623.256 - 0.054ms returns 0
T453C 20486:623.292 JLINK_WriteReg(R1, 0x00000400)
T453C 20486:623.325 - 0.049ms returns 0
T453C 20486:623.360 JLINK_WriteReg(R2, 0x2000017C)
T453C 20486:623.393 - 0.048ms returns 0
T453C 20486:623.427 JLINK_WriteReg(R3, 0x00000000)
T453C 20486:623.459 - 0.048ms returns 0
T453C 20486:623.494 JLINK_WriteReg(R4, 0x00000000)
T453C 20486:623.526 - 0.048ms returns 0
T453C 20486:623.561 JLINK_WriteReg(R5, 0x00000000)
T453C 20486:623.593 - 0.048ms returns 0
T453C 20486:623.627 JLINK_WriteReg(R6, 0x00000000)
T453C 20486:623.660 - 0.047ms returns 0
T453C 20486:623.694 JLINK_WriteReg(R7, 0x00000000)
T453C 20486:623.726 - 0.048ms returns 0
T453C 20486:623.760 JLINK_WriteReg(R8, 0x00000000)
T453C 20486:623.793 - 0.048ms returns 0
T453C 20486:623.827 JLINK_WriteReg(R9, 0x20000174)
T453C 20486:623.860 - 0.048ms returns 0
T453C 20486:623.894 JLINK_WriteReg(R10, 0x00000000)
T453C 20486:623.927 - 0.048ms returns 0
T453C 20486:623.960 JLINK_WriteReg(R11, 0x00000000)
T453C 20486:623.990 - 0.045ms returns 0
T453C 20486:624.022 JLINK_WriteReg(R12, 0x00000000)
T453C 20486:624.052 - 0.044ms returns 0
T453C 20486:624.084 JLINK_WriteReg(R13 (SP), 0x20001000)
T453C 20486:624.116 - 0.046ms returns 0
T453C 20486:624.147 JLINK_WriteReg(R14, 0x20000001)
T453C 20486:624.178 - 0.045ms returns 0
T453C 20486:624.210 JLINK_WriteReg(R15 (PC), 0x20000102)
T453C 20486:624.241 - 0.045ms returns 0
T453C 20486:624.275 JLINK_WriteReg(XPSR, 0x01000000)
T453C 20486:624.305 - 0.043ms returns 0
T453C 20486:624.334 JLINK_WriteReg(MSP, 0x20001000)
T453C 20486:624.363 - 0.042ms returns 0
T453C 20486:624.393 JLINK_WriteReg(PSP, 0x20001000)
T453C 20486:624.422 - 0.042ms returns 0
T453C 20486:624.452 JLINK_WriteReg(CFBP, 0x00000000)
T453C 20486:624.481 - 0.042ms returns 0
T453C 20486:624.511 JLINK_SetBPEx(Addr = 0x20000000, Type = 0xFFFFFFF2)
T453C 20486:624.542 - 0.044ms returns 0x00000009
T453C 20486:624.573 JLINK_Go()
T453C 20486:624.612   CPU_ReadMem(4 bytes @ 0xE0001000)
T453C 20486:628.905 - 4.354ms
T453C 20486:628.948 JLINK_IsHalted()
T453C 20486:629.620 - 0.706ms returns FALSE
T453C 20486:629.678 JLINK_HasError()
T453C 20486:641.489 JLINK_IsHalted()
T453C 20486:645.224   CPU_ReadMem(2 bytes @ 0x20000000)
T453C 20486:645.915 - 4.440ms returns TRUE
T453C 20486:645.944 JLINK_ReadReg(R15 (PC))
T453C 20486:645.969 - 0.034ms returns 0x20000000
T453C 20486:645.990 JLINK_ClrBPEx(BPHandle = 0x00000009)
T453C 20486:646.010 - 0.029ms returns 0x00
T453C 20486:646.030 JLINK_ReadReg(R0)
T453C 20486:646.050 - 0.028ms returns 0x00000000
T453C 20486:647.141 JLINK_WriteMem(0x2000017C, 0x284 Bytes, ...)
T453C 20486:647.168   Data:  CA 43 02 61 70 47 00 00 10 B5 1B 4B 98 42 0E D0 ...
T453C 20486:647.206   CPU_WriteMem(644 bytes @ 0x2000017C)
T453C 20486:655.366 - 8.252ms returns 0x284
T453C 20486:655.417 JLINK_WriteMem(0x20000400, 0x17C Bytes, ...)
T453C 20486:655.444   Data:  42 61 70 47 8A B2 01 F4 80 33 13 B1 C3 68 13 43 ...
T453C 20486:655.492   CPU_WriteMem(380 bytes @ 0x20000400)
T453C 20486:660.658 - 5.275ms returns 0x17C
T453C 20486:660.723 JLINK_HasError()
T453C 20486:660.806 JLINK_WriteReg(R0, 0x08001400)
T453C 20486:660.851 - 0.060ms returns 0
T453C 20486:660.884 JLINK_WriteReg(R1, 0x00000400)
T453C 20486:660.916 - 0.048ms returns 0
T453C 20486:660.950 JLINK_WriteReg(R2, 0x2000017C)
T453C 20486:660.981 - 0.047ms returns 0
T453C 20486:661.015 JLINK_WriteReg(R3, 0x00000000)
T453C 20486:661.048 - 0.047ms returns 0
T453C 20486:661.080 JLINK_WriteReg(R4, 0x00000000)
T453C 20486:661.111 - 0.045ms returns 0
T453C 20486:661.145 JLINK_WriteReg(R5, 0x00000000)
T453C 20486:661.182 - 0.055ms returns 0
T453C 20486:661.220 JLINK_WriteReg(R6, 0x00000000)
T453C 20486:661.252 - 0.047ms returns 0
T453C 20486:661.284 JLINK_WriteReg(R7, 0x00000000)
T453C 20486:661.317 - 0.046ms returns 0
T453C 20486:661.349 JLINK_WriteReg(R8, 0x00000000)
T453C 20486:661.379 - 0.045ms returns 0
T453C 20486:661.411 JLINK_WriteReg(R9, 0x20000174)
T453C 20486:661.441 - 0.044ms returns 0
T453C 20486:661.473 JLINK_WriteReg(R10, 0x00000000)
T453C 20486:661.503 - 0.045ms returns 0
T453C 20486:661.535 JLINK_WriteReg(R11, 0x00000000)
T453C 20486:661.565 - 0.044ms returns 0
T453C 20486:661.597 JLINK_WriteReg(R12, 0x00000000)
T453C 20486:661.627 - 0.044ms returns 0
T453C 20486:661.659 JLINK_WriteReg(R13 (SP), 0x20001000)
T453C 20486:661.691 - 0.046ms returns 0
T453C 20486:661.723 JLINK_WriteReg(R14, 0x20000001)
T453C 20486:661.754 - 0.045ms returns 0
T453C 20486:661.786 JLINK_WriteReg(R15 (PC), 0x20000102)
T453C 20486:661.817 - 0.045ms returns 0
T453C 20486:661.848 JLINK_WriteReg(XPSR, 0x01000000)
T453C 20486:661.879 - 0.045ms returns 0
T453C 20486:661.911 JLINK_WriteReg(MSP, 0x20001000)
T453C 20486:661.941 - 0.045ms returns 0
T453C 20486:661.973 JLINK_WriteReg(PSP, 0x20001000)
T453C 20486:662.004 - 0.045ms returns 0
T453C 20486:662.035 JLINK_WriteReg(CFBP, 0x00000000)
T453C 20486:662.065 - 0.044ms returns 0
T453C 20486:662.098 JLINK_SetBPEx(Addr = 0x20000000, Type = 0xFFFFFFF2)
T453C 20486:662.131 - 0.047ms returns 0x0000000A
T453C 20486:662.163 JLINK_Go()
T453C 20486:662.205   CPU_ReadMem(4 bytes @ 0xE0001000)
T453C 20486:666.640 - 4.504ms
T453C 20486:666.687 JLINK_IsHalted()
T453C 20486:667.379 - 0.707ms returns FALSE
T453C 20486:667.412 JLINK_HasError()
T453C 20486:675.636 JLINK_IsHalted()
T453C 20486:676.281 - 0.658ms returns FALSE
T453C 20486:676.306 JLINK_HasError()
T453C 20486:677.690 JLINK_IsHalted()
T453C 20486:678.356 - 0.676ms returns FALSE
T453C 20486:678.377 JLINK_HasError()
T453C 20486:679.654 JLINK_IsHalted()
T453C 20486:683.276   CPU_ReadMem(2 bytes @ 0x20000000)
T453C 20486:684.082 - 4.439ms returns TRUE
T453C 20486:684.110 JLINK_ReadReg(R15 (PC))
T453C 20486:684.135 - 0.036ms returns 0x20000000
T453C 20486:684.159 JLINK_ClrBPEx(BPHandle = 0x0000000A)
T453C 20486:684.182 - 0.033ms returns 0x00
T453C 20486:684.206 JLINK_ReadReg(R0)
T453C 20486:684.228 - 0.032ms returns 0x00000000
T453C 20486:684.888 JLINK_WriteMem(0x2000017C, 0x284 Bytes, ...)
T453C 20486:684.919   Data:  04 46 04 20 FF F7 84 FC 4F F4 00 30 FF F7 70 FC ...
T453C 20486:684.961   CPU_WriteMem(644 bytes @ 0x2000017C)
T453C 20486:693.056 - 8.196ms returns 0x284
T453C 20486:693.108 JLINK_WriteMem(0x20000400, 0x17C Bytes, ...)
T453C 20486:693.136   Data:  E0 22 90 61 07 20 10 61 00 20 EF E7 23 ED 00 E0 ...
T453C 20486:693.185   CPU_WriteMem(380 bytes @ 0x20000400)
T453C 20486:698.446 - 5.366ms returns 0x17C
T453C 20486:698.498 JLINK_HasError()
T453C 20486:698.579 JLINK_WriteReg(R0, 0x08001800)
T453C 20486:698.612 - 0.045ms returns 0
T453C 20486:698.640 JLINK_WriteReg(R1, 0x00000400)
T453C 20486:698.666 - 0.038ms returns 0
T453C 20486:698.692 JLINK_WriteReg(R2, 0x2000017C)
T453C 20486:698.718 - 0.037ms returns 0
T453C 20486:698.745 JLINK_WriteReg(R3, 0x00000000)
T453C 20486:698.770 - 0.037ms returns 0
T453C 20486:698.796 JLINK_WriteReg(R4, 0x00000000)
T453C 20486:698.822 - 0.038ms returns 0
T453C 20486:698.849 JLINK_WriteReg(R5, 0x00000000)
T453C 20486:698.875 - 0.038ms returns 0
T453C 20486:698.902 JLINK_WriteReg(R6, 0x00000000)
T453C 20486:698.928 - 0.037ms returns 0
T453C 20486:698.954 JLINK_WriteReg(R7, 0x00000000)
T453C 20486:698.979 - 0.037ms returns 0
T453C 20486:699.006 JLINK_WriteReg(R8, 0x00000000)
T453C 20486:699.031 - 0.037ms returns 0
T453C 20486:699.058 JLINK_WriteReg(R9, 0x20000174)
T453C 20486:699.083 - 0.037ms returns 0
T453C 20486:699.110 JLINK_WriteReg(R10, 0x00000000)
T453C 20486:699.135 - 0.037ms returns 0
T453C 20486:699.162 JLINK_WriteReg(R11, 0x00000000)
T453C 20486:699.188 - 0.038ms returns 0
T453C 20486:699.215 JLINK_WriteReg(R12, 0x00000000)
T453C 20486:699.245 - 0.044ms returns 0
T453C 20486:699.272 JLINK_WriteReg(R13 (SP), 0x20001000)
T453C 20486:699.296 - 0.035ms returns 0
T453C 20486:699.320 JLINK_WriteReg(R14, 0x20000001)
T453C 20486:699.343 - 0.034ms returns 0
T453C 20486:699.367 JLINK_WriteReg(R15 (PC), 0x20000102)
T453C 20486:699.390 - 0.033ms returns 0
T453C 20486:699.414 JLINK_WriteReg(XPSR, 0x01000000)
T453C 20486:699.437 - 0.040ms returns 0
T453C 20486:699.468 JLINK_WriteReg(MSP, 0x20001000)
T453C 20486:699.492 - 0.034ms returns 0
T453C 20486:699.516 JLINK_WriteReg(PSP, 0x20001000)
T453C 20486:699.539 - 0.034ms returns 0
T453C 20486:699.563 JLINK_WriteReg(CFBP, 0x00000000)
T453C 20486:699.586 - 0.033ms returns 0
T453C 20486:699.610 JLINK_SetBPEx(Addr = 0x20000000, Type = 0xFFFFFFF2)
T453C 20486:699.635 - 0.035ms returns 0x0000000B
T453C 20486:699.659 JLINK_Go()
T453C 20486:699.692   CPU_ReadMem(4 bytes @ 0xE0001000)
T453C 20486:704.098 - 4.460ms
T453C 20486:704.137 JLINK_IsHalted()
T453C 20486:704.850 - 0.726ms returns FALSE
T453C 20486:704.880 JLINK_HasError()
T453C 20486:714.477 JLINK_IsHalted()
T453C 20486:715.210 - 0.746ms returns FALSE
T453C 20486:715.239 JLINK_HasError()
T453C 20486:716.455 JLINK_IsHalted()
T453C 20486:717.179 - 0.753ms returns FALSE
T453C 20486:717.227 JLINK_HasError()
T453C 20486:718.422 JLINK_IsHalted()
T453C 20486:722.106   CPU_ReadMem(2 bytes @ 0x20000000)
T453C 20486:722.940 - 4.555ms returns TRUE
T453C 20486:723.001 JLINK_ReadReg(R15 (PC))
T453C 20486:723.038 - 0.051ms returns 0x20000000
T453C 20486:723.083 JLINK_ClrBPEx(BPHandle = 0x0000000B)
T453C 20486:723.137 - 0.068ms returns 0x00
T453C 20486:723.171 JLINK_ReadReg(R0)
T453C 20486:723.200 - 0.042ms returns 0x00000000
T453C 20486:724.599 JLINK_WriteMem(0x2000017C, 0x284 Bytes, ...)
T453C 20486:724.634   Data:  1C B5 00 21 12 A0 01 F0 7C FE 15 49 08 60 4F F4 ...
T453C 20486:724.685   CPU_WriteMem(644 bytes @ 0x2000017C)
T453C 20486:732.834 - 8.266ms returns 0x284
T453C 20486:732.888 JLINK_WriteMem(0x20000400, 0x17C Bytes, ...)
T453C 20486:732.918   Data:  03 28 01 D0 01 20 70 BD 2F 48 90 F8 C8 00 40 1C ...
T453C 20486:732.972   CPU_WriteMem(380 bytes @ 0x20000400)
T453C 20486:738.251 - 5.397ms returns 0x17C
T453C 20486:738.310 JLINK_HasError()
T453C 20486:738.345 JLINK_WriteReg(R0, 0x08001C00)
T453C 20486:738.384 - 0.053ms returns 0
T453C 20486:738.416 JLINK_WriteReg(R1, 0x00000400)
T453C 20486:738.447 - 0.045ms returns 0
T453C 20486:738.479 JLINK_WriteReg(R2, 0x2000017C)
T453C 20486:738.510 - 0.045ms returns 0
T453C 20486:738.542 JLINK_WriteReg(R3, 0x00000000)
T453C 20486:738.572 - 0.045ms returns 0
T453C 20486:738.604 JLINK_WriteReg(R4, 0x00000000)
T453C 20486:738.635 - 0.045ms returns 0
T453C 20486:738.667 JLINK_WriteReg(R5, 0x00000000)
T453C 20486:738.696 - 0.042ms returns 0
T453C 20486:738.726 JLINK_WriteReg(R6, 0x00000000)
T453C 20486:738.758 - 0.045ms returns 0
T453C 20486:738.788 JLINK_WriteReg(R7, 0x00000000)
T453C 20486:738.816 - 0.042ms returns 0
T453C 20486:738.846 JLINK_WriteReg(R8, 0x00000000)
T453C 20486:738.874 - 0.042ms returns 0
T453C 20486:738.904 JLINK_WriteReg(R9, 0x20000174)
T453C 20486:738.932 - 0.042ms returns 0
T453C 20486:738.962 JLINK_WriteReg(R10, 0x00000000)
T453C 20486:738.990 - 0.042ms returns 0
T453C 20486:739.020 JLINK_WriteReg(R11, 0x00000000)
T453C 20486:739.049 - 0.042ms returns 0
T453C 20486:739.079 JLINK_WriteReg(R12, 0x00000000)
T453C 20486:739.107 - 0.042ms returns 0
T453C 20486:739.137 JLINK_WriteReg(R13 (SP), 0x20001000)
T453C 20486:739.167 - 0.043ms returns 0
T453C 20486:739.197 JLINK_WriteReg(R14, 0x20000001)
T453C 20486:739.225 - 0.042ms returns 0
T453C 20486:739.255 JLINK_WriteReg(R15 (PC), 0x20000102)
T453C 20486:739.286 - 0.044ms returns 0
T453C 20486:739.314 JLINK_WriteReg(XPSR, 0x01000000)
T453C 20486:739.345 - 0.046ms returns 0
T453C 20486:739.378 JLINK_WriteReg(MSP, 0x20001000)
T453C 20486:739.406 - 0.042ms returns 0
T453C 20486:739.437 JLINK_WriteReg(PSP, 0x20001000)
T453C 20486:739.470 - 0.047ms returns 0
T453C 20486:739.510 JLINK_WriteReg(CFBP, 0x00000000)
T453C 20486:739.541 - 0.044ms returns 0
T453C 20486:739.576 JLINK_SetBPEx(Addr = 0x20000000, Type = 0xFFFFFFF2)
T453C 20486:739.606 - 0.043ms returns 0x0000000C
T453C 20486:739.635 JLINK_Go()
T453C 20486:739.673   CPU_ReadMem(4 bytes @ 0xE0001000)
T453C 20486:744.117 - 4.503ms
T453C 20486:744.153 JLINK_IsHalted()
T453C 20486:744.852 - 0.710ms returns FALSE
T453C 20486:744.878 JLINK_HasError()
T453C 20486:747.742 JLINK_IsHalted()
T453C 20486:748.551 - 0.853ms returns FALSE
T453C 20486:748.615 JLINK_HasError()
T453C 20486:749.737 JLINK_IsHalted()
T453C 20486:750.494 - 0.770ms returns FALSE
T453C 20486:750.529 JLINK_HasError()
T453C 20486:751.757 JLINK_IsHalted()
T453C 20486:752.477 - 0.742ms returns FALSE
T453C 20486:752.518 JLINK_HasError()
T453C 20486:754.077 JLINK_IsHalted()
T453C 20486:754.772 - 0.718ms returns FALSE
T453C 20486:754.817 JLINK_HasError()
T453C 20486:765.359 JLINK_IsHalted()
T453C 20486:769.039   CPU_ReadMem(2 bytes @ 0x20000000)
T453C 20486:769.776 - 4.440ms returns TRUE
T453C 20486:769.816 JLINK_ReadReg(R15 (PC))
T453C 20486:769.842 - 0.036ms returns 0x20000000
T453C 20486:769.865 JLINK_ClrBPEx(BPHandle = 0x0000000C)
T453C 20486:769.887 - 0.032ms returns 0x00
T453C 20486:769.910 JLINK_ReadReg(R0)
T453C 20486:769.931 - 0.031ms returns 0x00000000
T453C 20486:770.556 JLINK_WriteMem(0x2000017C, 0x284 Bytes, ...)
T453C 20486:770.586   Data:  02 00 69 46 20 48 FE F7 9A FF 01 22 02 21 1E 48 ...
T453C 20486:770.625   CPU_WriteMem(644 bytes @ 0x2000017C)
T453C 20486:778.737 - 8.204ms returns 0x284
T453C 20486:778.785 JLINK_WriteMem(0x20000400, 0x17C Bytes, ...)
T453C 20486:778.813   Data:  9E 48 40 69 40 1C 05 21 90 FB F1 F2 01 FB 12 00 ...
T453C 20486:778.863   CPU_WriteMem(380 bytes @ 0x20000400)
